T3340 000:022.434   SEGGER J-Link V6.84a Log File
T3340 000:029.467   DLL Compiled: Sep  7 2020 17:26:08
T3340 000:029.888   Logging started @ 2021-03-22 17:02
T3340 000:030.323 - 30.520ms
T3340 000:030.706 JLINK_SetWarnOutHandler(...)
T3340 000:031.037 - 0.494ms
T3340 000:031.410 JLINK_OpenEx(...)
T3340 000:034.104   Firmware: J-Link V10 compiled Jul 17 2020 16:23:38
T3340 000:035.881   Decompressing FW timestamp took 747 us
T3340 000:039.392   Hardware: V10.10
T3340 000:040.092   S/N: 260112689
T3340 000:040.780   OEM: SEGGER-EDU
T3340 000:041.278   Feature(s): FlashBP, GDB
T3340 000:044.613   TELNET listener socket opened on port 19021
T3340 000:045.655   WEBSRV Starting webserver
T3340 000:046.497   WEBSRV Webserver running on local port 19080
T3340 000:047.097 - 15.873ms returns "O.K."
T3340 000:047.472 JLINK_GetEmuCaps()
T3340 000:047.834 - 0.537ms returns 0xB9FF7BBF
T3340 000:048.191 JLINK_TIF_GetAvailable(...)
T3340 000:048.884 - 0.996ms
T3340 000:049.371 JLINK_SetErrorOutHandler(...)
T3340 000:049.758 - 0.563ms
T3340 000:050.196 JLINK_ExecCommand("ProjectFile = "C:\Users\Jona Cappelle\Box\NOMADe\SOFTWARE\nRF5_SDK_17.0.2_d674dde\examples\ble_peripheral\nRF52-BLE-IMU\pca10040\s132\arm5_no_packs\JLinkSettings.ini"", ...). 
T3340 000:072.476   Ref file found at: C:\Keil_v5\ARM\Segger\JLinkDevices.ref
T3340 000:073.126   XML referenced by ref file: C:\Program Files (x86)\SEGGER\JLink\JLinkDevices.xml
T3340 000:074.685   C:\Program Files (x86)\SEGGER\JLink\JLinkDevices.xml evaluated successfully.
T3340 000:145.781 - 102.119ms returns 0x00
T3340 000:160.050 JLINK_ExecCommand("Device = nRF52832_xxAA", ...). 
T3340 000:168.610   Device "NRF52832_XXAA" selected.
T3340 000:171.060 - 10.771ms returns 0x00
T3340 000:171.588 JLINK_GetHardwareVersion()
T3340 000:171.965 - 0.546ms returns 101000
T3340 000:172.342 JLINK_GetDLLVersion()
T3340 000:172.732 - 0.554ms returns 68401
T3340 000:173.064 JLINK_GetOEMString(...)
T3340 000:195.843 JLINK_GetDLLVersion()
T3340 000:196.333 - 0.741ms returns 68401
T3340 000:196.807 JLINK_GetCompileDateTime()
T3340 000:197.256 - 0.620ms
T3340 000:204.983 JLINK_GetFirmwareString(...)
T3340 000:205.497 - 0.819ms
T3340 000:213.177 JLINK_GetHardwareVersion()
T3340 000:213.758 - 0.836ms returns 101000
T3340 000:222.038 JLINK_GetSN()
T3340 000:222.574 - 0.761ms returns 260112689
T3340 000:230.283 JLINK_GetOEMString(...)
T3340 000:253.662 JLINK_TIF_Select(JLINKARM_TIF_SWD)
T3340 000:255.491 - 2.089ms returns 0x00
T3340 000:256.035 JLINK_HasError()
T3340 000:256.501 JLINK_SetSpeed(5000)
T3340 000:257.116 - 0.800ms
T3340 000:257.548 JLINK_GetId()
T3340 000:265.464   InitTarget() start
T3340 000:267.123    J-Link Script File: Executing InitTarget()
T3340 000:278.793   InitTarget() end
T3340 000:288.309   Found SW-DP with ID 0x2BA01477
T3340 000:298.687   DPIDR: 0x2BA01477
T3340 000:307.019   Scanning AP map to find all available APs
T3340 000:316.208   AP[2]: Stopped AP scan as end of AP map has been reached
T3340 000:324.316   AP[0]: AHB-AP (IDR: 0x24770011)
T3340 000:332.043   AP[1]: JTAG-AP (IDR: 0x02880000)
T3340 000:342.450   Iterating through AP map to find AHB-AP to use
T3340 000:351.757   AP[0]: Core found
T3340 000:360.104   AP[0]: AHB-AP ROM base: 0xE00FF000
T3340 000:370.717   CPUID register: 0x410FC241. Implementer code: 0x41 (ARM)
T3340 000:378.586   Found Cortex-M4 r0p1, Little endian.
T3340 000:481.298   -- Max. mem block: 0x000045C0
T3340 000:482.027   CPU_ReadMem(4 bytes @ 0xE000EDF0)
T3340 000:483.376   CPU_WriteMem(4 bytes @ 0xE000EDF0)
T3340 000:484.497   CPU_ReadMem(4 bytes @ 0xE0002000)
T3340 000:492.578   FPUnit: 6 code (BP) slots and 2 literal slots
T3340 000:493.347   CPU_ReadMem(4 bytes @ 0xE000EDFC)
T3340 000:494.370   CPU_WriteMem(4 bytes @ 0xE000EDFC)
T3340 000:495.494   CPU_ReadMem(4 bytes @ 0xE0001000)
T3340 000:496.375   CPU_WriteMem(4 bytes @ 0xE0001000)
T3340 000:497.632   CPU_ReadMem(4 bytes @ 0xE000ED88)
T3340 000:498.742   CPU_WriteMem(4 bytes @ 0xE000ED88)
T3340 000:499.763   CPU_ReadMem(4 bytes @ 0xE000ED88)
T3340 000:500.885   CPU_WriteMem(4 bytes @ 0xE000ED88)
T3340 000:508.863   CoreSight components:
T3340 000:516.088   ROMTbl[0] @ E00FF000
T3340 000:516.732   CPU_ReadMem(64 bytes @ 0xE00FF000)
T3340 000:518.124   CPU_ReadMem(32 bytes @ 0xE000EFE0)
T3340 000:526.363   ROMTbl[0][0]: E000E000, CID: B105E00D, PID: 000BB00C SCS-M7
T3340 000:527.015   CPU_ReadMem(32 bytes @ 0xE0001FE0)
T3340 000:535.372   ROMTbl[0][1]: E0001000, CID: B105E00D, PID: 003BB002 DWT
T3340 000:536.018   CPU_ReadMem(32 bytes @ 0xE0002FE0)
T3340 000:544.417   ROMTbl[0][2]: E0002000, CID: B105E00D, PID: 002BB003 FPB
T3340 000:547.426   CPU_ReadMem(32 bytes @ 0xE0000FE0)
T3340 000:556.151   ROMTbl[0][3]: E0000000, CID: B105E00D, PID: 003BB001 ITM
T3340 000:556.841   CPU_ReadMem(32 bytes @ 0xE0040FE0)
T3340 000:564.812   ROMTbl[0][4]: E0040000, CID: B105900D, PID: 000BB9A1 TPIU
T3340 000:565.413   CPU_ReadMem(32 bytes @ 0xE0041FE0)
T3340 000:573.719   ROMTbl[0][5]: E0041000, CID: B105900D, PID: 000BB925 ETM
T3340 000:574.640 - 317.298ms returns 0x2BA01477
T3340 000:575.047 JLINK_GetDLLVersion()
T3340 000:575.440 - 0.613ms returns 68401
T3340 000:575.870 JLINK_CORE_GetFound()
T3340 000:576.247 - 0.569ms returns 0xE0000FF
T3340 000:576.667 JLINK_GetDebugInfo(0x100 = JLINKARM_ROM_TABLE_ADDR_INDEX)
T3340 000:577.052   Value=0xE00FF000
T3340 000:577.617 - 1.136ms returns 0
T3340 000:585.569 JLINK_GetDebugInfo(0x100 = JLINKARM_ROM_TABLE_ADDR_INDEX)
T3340 000:586.094   Value=0xE00FF000
T3340 000:586.739 - 1.375ms returns 0
T3340 000:587.227 JLINK_GetDebugInfo(0x101 = JLINKARM_DEBUG_INFO_ETM_ADDR_INDEX)
T3340 000:587.716   Value=0xE0041000
T3340 000:588.432 - 1.405ms returns 0
T3340 000:588.839 JLINK_ReadMemEx(0xE0041FD0, 0x20 Bytes, Flags = 0x02000004)
T3340 000:589.252   CPU_ReadMem(32 bytes @ 0xE0041FD0)
T3340 000:590.369   Data:  04 00 00 00 00 00 00 00 00 00 00 00 00 00 00 00 ...
T3340 000:590.838 - 2.151ms returns 32 (0x20)
T3340 000:591.182 JLINK_GetDebugInfo(0x102 = JLINKARM_DEBUG_INFO_MTB_ADDR_INDEX)
T3340 000:591.607   Value=0x00000000
T3340 000:592.149 - 1.153ms returns 0
T3340 000:592.569 JLINK_GetDebugInfo(0x103 = JLINKARM_DEBUG_INFO_TPIU_ADDR_INDEX)
T3340 000:592.934   Value=0xE0040000
T3340 000:593.431 - 1.058ms returns 0
T3340 000:593.789 JLINK_GetDebugInfo(0x104 = JLINKARM_DEBUG_INFO_ITM_ADDR_INDEX)
T3340 000:594.118   Value=0xE0000000
T3340 000:594.642 - 1.011ms returns 0
T3340 000:594.964 JLINK_GetDebugInfo(0x105 = JLINKARM_DEBUG_INFO_DWT_ADDR_INDEX)
T3340 000:595.327   Value=0xE0001000
T3340 000:595.792 - 1.086ms returns 0
T3340 000:596.221 JLINK_GetDebugInfo(0x106 = JLINKARM_DEBUG_INFO_FPB_ADDR_INDEX)
T3340 000:596.543   Value=0xE0002000
T3340 000:597.313 - 1.306ms returns 0
T3340 000:597.685 JLINK_GetDebugInfo(0x107 = JLINKARM_DEBUG_INFO_NVIC_ADDR_INDEX)
T3340 000:598.001   Value=0xE000E000
T3340 000:598.637 - 1.211ms returns 0
T3340 000:599.080 JLINK_GetDebugInfo(0x10C = JLINKARM_DEBUG_INFO_DBG_ADDR_INDEX)
T3340 000:599.654   Value=0xE000EDF0
T3340 000:600.172 - 1.300ms returns 0
T3340 000:600.589 JLINK_GetDebugInfo(0x01 = Unknown)
T3340 000:601.160   Value=0x00000001
T3340 000:601.704 - 1.274ms returns 0
T3340 000:602.066 JLINK_ReadMemU32(0xE000ED00, 0x1 Items)
T3340 000:602.406   CPU_ReadMem(4 bytes @ 0xE000ED00)
T3340 000:603.365   Data:  41 C2 0F 41
T3340 000:603.852   Debug reg: CPUID
T3340 000:604.357 - 2.464ms returns 1 (0x1)
T3340 000:604.695 JLINK_GetDebugInfo(0x10F = JLINKARM_DEBUG_INFO_HAS_CORTEX_M_SECURITY_EXT_INDEX)
T3340 000:605.046   Value=0x00000000
T3340 000:605.545 - 1.014ms returns 0
T3340 000:605.935 JLINK_HasError()
T3340 000:606.276 JLINK_SetResetType(JLINKARM_CM3_RESET_TYPE_NORMAL)
T3340 000:606.625 - 0.529ms returns JLINKARM_CM3_RESET_TYPE_NORMAL
T3340 000:606.996 JLINK_Reset()
T3340 000:607.351   CPU is running
T3340 000:607.848   CPU_WriteMem(4 bytes @ 0xE000EDF0)
T3340 000:608.738   CPU is running
T3340 000:609.293   CPU_WriteMem(4 bytes @ 0xE000EDFC)
T3340 000:617.953   Reset: Halt core after reset via DEMCR.VC_CORERESET.
T3340 000:626.017   Reset: Reset device via AIRCR.SYSRESETREQ.
T3340 000:626.697   CPU is running
T3340 000:627.247   CPU_WriteMem(4 bytes @ 0xE000ED0C)
T3340 000:680.694   CPU_ReadMem(4 bytes @ 0xE000EDF0)
T3340 000:683.490   CPU_ReadMem(4 bytes @ 0xE000EDF0)
T3340 000:684.628   CPU is running
T3340 000:685.315   CPU_WriteMem(4 bytes @ 0xE000EDF0)
T3340 000:686.365   CPU is running
T3340 000:686.822   CPU_WriteMem(4 bytes @ 0xE000EDFC)
T3340 000:693.769   CPU_ReadMem(4 bytes @ 0xE000EDF0)
T3340 000:697.152   CPU_WriteMem(4 bytes @ 0xE0002000)
T3340 000:698.255   CPU_ReadMem(4 bytes @ 0xE000EDFC)
T3340 000:699.255   CPU_ReadMem(4 bytes @ 0xE0001000)
T3340 000:700.248 - 93.445ms
T3340 000:700.646 JLINK_Halt()
T3340 000:701.144 - 0.681ms returns 0x00
T3340 000:701.536 JLINK_ReadMemU32(0xE000EDF0, 0x1 Items)
T3340 000:701.956   CPU_ReadMem(4 bytes @ 0xE000EDF0)
T3340 000:702.997   Data:  03 00 03 00
T3340 000:703.550   Debug reg: DHCSR
T3340 000:704.135 - 2.794ms returns 1 (0x1)
T3340 000:704.541 JLINK_WriteU32_64(0xE000EDF0, 0xA05F0003)
T3340 000:704.919   Debug reg: DHCSR
T3340 000:705.489   CPU_WriteMem(4 bytes @ 0xE000EDF0)
T3340 000:706.360 - 1.976ms returns 0 (0x00000000)
T3340 000:706.676 JLINK_WriteU32_64(0xE000EDFC, 0x01000000)
T3340 000:707.074   Debug reg: DEMCR
T3340 000:707.694   CPU_WriteMem(4 bytes @ 0xE000EDFC)
T3340 000:708.609 - 2.092ms returns 0 (0x00000000)
T3340 000:741.739 JLINK_GetHWStatus(...)
T3340 000:742.639 - 1.096ms returns 0
T3340 000:763.724 JLINK_GetNumBPUnits(Type = 0xFFFFFF00)
T3340 000:764.261 - 0.795ms returns 0x06
T3340 000:764.747 JLINK_GetNumBPUnits(Type = 0xF0)
T3340 000:765.132 - 0.585ms returns 0x2000
T3340 000:765.551 JLINK_GetNumWPUnits()
T3340 000:765.906 - 0.554ms returns 4
T3340 000:786.884 JLINK_GetSpeed()
T3340 000:787.343 - 0.656ms returns 5000
T3340 000:800.258 JLINK_ReadMemU32(0xE000E004, 0x1 Items)
T3340 000:800.715   CPU_ReadMem(4 bytes @ 0xE000E004)
T3340 000:802.006   Data:  01 00 00 00
T3340 000:802.677 - 2.651ms returns 1 (0x1)
T3340 000:803.144 JLINK_ReadMemU32(0xE000E004, 0x1 Items)
T3340 000:803.566   CPU_ReadMem(4 bytes @ 0xE000E004)
T3340 000:804.510   Data:  01 00 00 00
T3340 000:805.137 - 2.191ms returns 1 (0x1)
T3340 000:805.535 JLINK_WriteMemEx(0xE0001000, 0x0000001C Bytes, Flags = 0x02000004)
T3340 000:805.973   Data:  01 00 00 00 00 00 00 00 00 00 00 00 00 00 00 00 ...
T3340 000:806.961   CPU_WriteMem(28 bytes @ 0xE0001000)
T3340 000:808.139 - 5.225ms returns 0x1C
T3340 000:810.980 JLINK_Halt()
T3340 000:811.515 - 0.798ms returns 0x00
T3340 000:812.005 JLINK_IsHalted()
T3340 000:812.472 - 0.626ms returns TRUE
T3340 000:817.986 JLINK_WriteMem(0x20000000, 0x5B8 Bytes, ...)
T3340 000:818.465   Data:  00 BE 0A E0 0D 78 2D 06 68 40 08 24 40 00 00 D3 ...
T3340 000:819.677   CPU_WriteMem(1464 bytes @ 0x20000000)
T3340 000:824.738 - 6.934ms returns 0x5B8
T3340 000:825.121 JLINK_HasError()
T3340 000:825.487 JLINK_WriteReg(R0, 0x00000000)
T3340 000:825.844 - 0.510ms returns 0
T3340 000:826.157 JLINK_WriteReg(R1, 0x03D09000)
T3340 000:826.498 - 0.597ms returns 0
T3340 000:826.940 JLINK_WriteReg(R2, 0x00000001)
T3340 000:827.381 - 0.656ms returns 0
T3340 000:827.770 JLINK_WriteReg(R3, 0x00000000)
T3340 000:828.161 - 0.569ms returns 0
T3340 000:828.498 JLINK_WriteReg(R4, 0x00000000)
T3340 000:828.830 - 0.514ms returns 0
T3340 000:829.181 JLINK_WriteReg(R5, 0x00000000)
T3340 000:829.516 - 0.521ms returns 0
T3340 000:830.018 JLINK_WriteReg(R6, 0x00000000)
T3340 000:830.334 - 0.479ms returns 0
T3340 000:830.654 JLINK_WriteReg(R7, 0x00000000)
T3340 000:831.091 - 0.648ms returns 0
T3340 000:831.474 JLINK_WriteReg(R8, 0x00000000)
T3340 000:831.877 - 0.602ms returns 0
T3340 000:832.248 JLINK_WriteReg(R9, 0x200005B4)
T3340 000:832.643 - 0.619ms returns 0
T3340 000:833.065 JLINK_WriteReg(R10, 0x00000000)
T3340 000:833.576 - 0.713ms returns 0
T3340 000:833.986 JLINK_WriteReg(R11, 0x00000000)
T3340 000:834.466 - 0.653ms returns 0
T3340 000:834.863 JLINK_WriteReg(R12, 0x00000000)
T3340 000:835.383 - 0.700ms returns 0
T3340 000:835.756 JLINK_WriteReg(R13 (SP), 0x20002000)
T3340 000:836.198 - 0.704ms returns 0
T3340 000:836.700 JLINK_WriteReg(R14, 0x20000001)
T3340 000:837.282 - 0.870ms returns 0
T3340 000:837.780 JLINK_WriteReg(R15 (PC), 0x20000020)
T3340 000:838.152 - 0.564ms returns 0
T3340 000:838.512 JLINK_WriteReg(XPSR, 0x01000000)
T3340 000:838.845 - 0.566ms returns 0
T3340 000:839.282 JLINK_WriteReg(MSP, 0x20002000)
T3340 000:839.649 - 0.534ms returns 0
T3340 000:840.033 JLINK_WriteReg(PSP, 0x20002000)
T3340 000:840.363 - 0.513ms returns 0
T3340 000:840.721 JLINK_WriteReg(CFBP, 0x00000000)
T3340 000:841.063 - 0.587ms returns 0
T3340 000:841.578 JLINK_SetBPEx(Addr = 0x20000000, Type = 0xFFFFFFF2)
T3340 000:841.966   CPU_ReadMem(2 bytes @ 0x20000000)
T3340 000:843.014 - 1.620ms returns 0x00000001
T3340 000:843.424 JLINK_Go()
T3340 000:843.787   CPU_WriteMem(2 bytes @ 0x20000000)
T3340 000:844.746   CPU_ReadMem(4 bytes @ 0xE0001000)
T3340 000:845.737   CPU_WriteMem(4 bytes @ 0xE0002008)
T3340 000:846.242   CPU_WriteMem(4 bytes @ 0xE000200C)
T3340 000:846.759   CPU_WriteMem(4 bytes @ 0xE0002010)
T3340 000:847.263   CPU_WriteMem(4 bytes @ 0xE0002014)
T3340 000:847.938   CPU_WriteMem(4 bytes @ 0xE0002018)
T3340 000:848.402   CPU_WriteMem(4 bytes @ 0xE000201C)
T3340 000:853.128   CPU_WriteMem(4 bytes @ 0xE0001004)
T3340 000:855.862 - 12.613ms
T3340 000:856.204 JLINK_IsHalted()
T3340 000:858.504   CPU_ReadMem(2 bytes @ 0x20000000)
T3340 000:859.490 - 3.567ms returns TRUE
T3340 000:859.946 JLINK_ReadReg(R15 (PC))
T3340 000:860.269 - 0.477ms returns 0x20000000
T3340 000:860.613 JLINK_ClrBPEx(BPHandle = 0x00000001)
T3340 000:860.970 - 0.558ms returns 0x00
T3340 000:861.413 JLINK_ReadReg(R0)
T3340 000:861.797 - 0.566ms returns 0x00000000
T3340 000:862.608 JLINK_HasError()
T3340 000:862.988 JLINK_WriteReg(R0, 0x00026000)
T3340 000:863.371 - 0.540ms returns 0
T3340 000:863.704 JLINK_WriteReg(R1, 0x00001000)
T3340 000:864.054 - 0.636ms returns 0
T3340 000:864.559 JLINK_WriteReg(R2, 0x000000FF)
T3340 000:865.000 - 0.627ms returns 0
T3340 000:865.393 JLINK_WriteReg(R3, 0x00000000)
T3340 000:865.744 - 0.505ms returns 0
T3340 000:866.056 JLINK_WriteReg(R4, 0x00000000)
T3340 000:866.436 - 0.541ms returns 0
T3340 000:866.817 JLINK_WriteReg(R5, 0x00000000)
T3340 000:867.185 - 0.635ms returns 0
T3340 000:867.667 JLINK_WriteReg(R6, 0x00000000)
T3340 000:868.064 - 0.571ms returns 0
T3340 000:868.441 JLINK_WriteReg(R7, 0x00000000)
T3340 000:868.794 - 0.533ms returns 0
T3340 000:869.157 JLINK_WriteReg(R8, 0x00000000)
T3340 000:869.523 - 0.534ms returns 0
T3340 000:869.855 JLINK_WriteReg(R9, 0x200005B4)
T3340 000:870.213 - 0.519ms returns 0
T3340 000:870.551 JLINK_WriteReg(R10, 0x00000000)
T3340 000:870.980 - 0.618ms returns 0
T3340 000:871.329 JLINK_WriteReg(R11, 0x00000000)
T3340 000:871.699 - 0.565ms returns 0
T3340 000:872.070 JLINK_WriteReg(R12, 0x00000000)
T3340 000:872.435 - 0.537ms returns 0
T3340 000:872.808 JLINK_WriteReg(R13 (SP), 0x20002000)
T3340 000:873.155 - 0.535ms returns 0
T3340 000:873.524 JLINK_WriteReg(R14, 0x20000001)
T3340 000:873.879 - 0.511ms returns 0
T3340 000:874.229 JLINK_WriteReg(R15 (PC), 0x20000288)
T3340 000:874.576 - 0.526ms returns 0
T3340 000:874.938 JLINK_WriteReg(XPSR, 0x01000000)
T3340 000:875.295 - 0.510ms returns 0
T3340 000:875.647 JLINK_WriteReg(MSP, 0x20002000)
T3340 000:876.020 - 0.567ms returns 0
T3340 000:876.401 JLINK_WriteReg(PSP, 0x20002000)
T3340 000:876.759 - 0.525ms returns 0
T3340 000:877.137 JLINK_WriteReg(CFBP, 0x00000000)
T3340 000:877.500 - 0.544ms returns 0
T3340 000:877.870 JLINK_SetBPEx(Addr = 0x20000000, Type = 0xFFFFFFF2)
T3340 000:878.213 - 0.505ms returns 0x00000002
T3340 000:878.532 JLINK_Go()
T3340 000:878.855   CPU_ReadMem(4 bytes @ 0xE0001000)
T3340 000:881.861 - 3.503ms
T3340 000:882.206 JLINK_IsHalted()
T3340 000:884.645   CPU_ReadMem(2 bytes @ 0x20000000)
T3340 000:885.892 - 3.866ms returns TRUE
T3340 000:886.300 JLINK_ReadReg(R15 (PC))
T3340 000:886.666 - 0.562ms returns 0x20000000
T3340 000:887.100 JLINK_ClrBPEx(BPHandle = 0x00000002)
T3340 000:887.462 - 0.558ms returns 0x00
T3340 000:887.857 JLINK_ReadReg(R0)
T3340 000:888.213 - 0.510ms returns 0x00000000
T3340 000:889.140 JLINK_HasError()
T3340 000:889.499 JLINK_WriteReg(R0, 0x00027000)
T3340 000:889.818 - 0.470ms returns 0
T3340 000:890.123 JLINK_WriteReg(R1, 0x00001000)
T3340 000:890.420 - 0.543ms returns 0
T3340 000:890.840 JLINK_WriteReg(R2, 0x000000FF)
T3340 000:891.187 - 0.500ms returns 0
T3340 000:891.516 JLINK_WriteReg(R3, 0x00000000)
T3340 000:891.957 - 0.591ms returns 0
T3340 000:892.260 JLINK_WriteReg(R4, 0x00000000)
T3340 000:892.599 - 0.493ms returns 0
T3340 000:892.908 JLINK_WriteReg(R5, 0x00000000)
T3340 000:893.222 - 0.471ms returns 0
T3340 000:893.533 JLINK_WriteReg(R6, 0x00000000)
T3340 000:893.838 - 0.453ms returns 0
T3340 000:894.137 JLINK_WriteReg(R7, 0x00000000)
T3340 000:894.454 - 0.493ms returns 0
T3340 000:894.799 JLINK_WriteReg(R8, 0x00000000)
T3340 000:895.114 - 0.519ms returns 0
T3340 000:895.487 JLINK_WriteReg(R9, 0x200005B4)
T3340 000:895.817 - 0.498ms returns 0
T3340 000:896.144 JLINK_WriteReg(R10, 0x00000000)
T3340 000:896.514 - 0.548ms returns 0
T3340 000:896.893 JLINK_WriteReg(R11, 0x00000000)
T3340 000:897.212 - 0.481ms returns 0
T3340 000:897.548 JLINK_WriteReg(R12, 0x00000000)
T3340 000:897.938 - 0.558ms returns 0
T3340 000:898.317 JLINK_WriteReg(R13 (SP), 0x20002000)
T3340 000:898.644 - 0.513ms returns 0
T3340 000:899.004 JLINK_WriteReg(R14, 0x20000001)
T3340 000:899.347 - 0.505ms returns 0
T3340 000:899.678 JLINK_WriteReg(R15 (PC), 0x20000288)
T3340 000:900.074 - 0.552ms returns 0
T3340 000:900.432 JLINK_WriteReg(XPSR, 0x01000000)
T3340 000:900.856 - 0.621ms returns 0
T3340 000:901.252 JLINK_WriteReg(MSP, 0x20002000)
T3340 000:901.597 - 0.523ms returns 0
T3340 000:901.938 JLINK_WriteReg(PSP, 0x20002000)
T3340 000:902.294 - 0.542ms returns 0
T3340 000:902.652 JLINK_WriteReg(CFBP, 0x00000000)
T3340 000:902.984 - 0.531ms returns 0
T3340 000:903.356 JLINK_SetBPEx(Addr = 0x20000000, Type = 0xFFFFFFF2)
T3340 000:903.682 - 0.510ms returns 0x00000003
T3340 000:904.038 JLINK_Go()
T3340 000:904.406   CPU_ReadMem(4 bytes @ 0xE0001000)
T3340 000:907.110 - 3.238ms
T3340 000:907.437 JLINK_IsHalted()
T3340 000:909.748   CPU_ReadMem(2 bytes @ 0x20000000)
T3340 000:910.618 - 3.379ms returns TRUE
T3340 000:910.998 JLINK_ReadReg(R15 (PC))
T3340 000:911.435 - 0.682ms returns 0x20000000
T3340 000:911.904 JLINK_ClrBPEx(BPHandle = 0x00000003)
T3340 000:912.338 - 0.604ms returns 0x00
T3340 000:912.703 JLINK_ReadReg(R0)
T3340 000:913.031 - 0.591ms returns 0x00000000
T3340 000:914.101 JLINK_HasError()
T3340 000:914.574 JLINK_WriteReg(R0, 0x00028000)
T3340 000:914.928 - 0.531ms returns 0
T3340 000:915.286 JLINK_WriteReg(R1, 0x00001000)
T3340 000:915.648 - 0.555ms returns 0
T3340 000:916.031 JLINK_WriteReg(R2, 0x000000FF)
T3340 000:916.410 - 0.550ms returns 0
T3340 000:916.778 JLINK_WriteReg(R3, 0x00000000)
T3340 000:917.164 - 0.580ms returns 0
T3340 000:917.620 JLINK_WriteReg(R4, 0x00000000)
T3340 000:918.146 - 0.735ms returns 0
T3340 000:918.582 JLINK_WriteReg(R5, 0x00000000)
T3340 000:918.991 - 0.609ms returns 0
T3340 000:919.462 JLINK_WriteReg(R6, 0x00000000)
T3340 000:919.937 - 0.646ms returns 0
T3340 000:920.319 JLINK_WriteReg(R7, 0x00000000)
T3340 000:920.687 - 0.524ms returns 0
T3340 000:921.020 JLINK_WriteReg(R8, 0x00000000)
T3340 000:921.359 - 0.491ms returns 0
T3340 000:921.714 JLINK_WriteReg(R9, 0x200005B4)
T3340 000:922.046 - 0.539ms returns 0
T3340 000:922.431 JLINK_WriteReg(R10, 0x00000000)
T3340 000:922.792 - 0.536ms returns 0
T3340 000:923.163 JLINK_WriteReg(R11, 0x00000000)
T3340 000:923.484 - 0.508ms returns 0
T3340 000:923.837 JLINK_WriteReg(R12, 0x00000000)
T3340 000:924.184 - 0.502ms returns 0
T3340 000:924.538 JLINK_WriteReg(R13 (SP), 0x20002000)
T3340 000:924.871 - 0.546ms returns 0
T3340 000:925.260 JLINK_WriteReg(R14, 0x20000001)
T3340 000:925.611 - 0.521ms returns 0
T3340 000:926.051 JLINK_WriteReg(R15 (PC), 0x20000288)
T3340 000:926.449 - 0.570ms returns 0
T3340 000:926.777 JLINK_WriteReg(XPSR, 0x01000000)
T3340 000:927.269 - 0.651ms returns 0
T3340 000:927.629 JLINK_WriteReg(MSP, 0x20002000)
T3340 000:927.984 - 0.513ms returns 0
T3340 000:928.341 JLINK_WriteReg(PSP, 0x20002000)
T3340 000:928.674 - 0.498ms returns 0
T3340 000:929.000 JLINK_WriteReg(CFBP, 0x00000000)
T3340 000:929.380 - 0.532ms returns 0
T3340 000:929.720 JLINK_SetBPEx(Addr = 0x20000000, Type = 0xFFFFFFF2)
T3340 000:930.079 - 0.538ms returns 0x00000004
T3340 000:930.428 JLINK_Go()
T3340 000:930.818   CPU_ReadMem(4 bytes @ 0xE0001000)
T3340 000:933.617 - 3.369ms
T3340 000:934.075 JLINK_IsHalted()
T3340 000:936.642   CPU_ReadMem(2 bytes @ 0x20000000)
T3340 000:937.892 - 4.002ms returns TRUE
T3340 000:938.304 JLINK_ReadReg(R15 (PC))
T3340 000:938.672 - 0.551ms returns 0x20000000
T3340 000:939.030 JLINK_ClrBPEx(BPHandle = 0x00000004)
T3340 000:939.368 - 0.508ms returns 0x00
T3340 000:939.730 JLINK_ReadReg(R0)
T3340 000:940.062 - 0.505ms returns 0x00000000
T3340 000:941.015 JLINK_HasError()
T3340 000:941.418 JLINK_WriteReg(R0, 0x00029000)
T3340 000:941.795 - 0.572ms returns 0
T3340 000:942.156 JLINK_WriteReg(R1, 0x00001000)
T3340 000:942.505 - 0.523ms returns 0
T3340 000:942.839 JLINK_WriteReg(R2, 0x000000FF)
T3340 000:943.215 - 0.534ms returns 0
T3340 000:943.528 JLINK_WriteReg(R3, 0x00000000)
T3340 000:943.907 - 0.534ms returns 0
T3340 000:944.244 JLINK_WriteReg(R4, 0x00000000)
T3340 000:944.568 - 0.506ms returns 0
T3340 000:944.927 JLINK_WriteReg(R5, 0x00000000)
T3340 000:945.257 - 0.493ms returns 0
T3340 000:945.605 JLINK_WriteReg(R6, 0x00000000)
T3340 000:945.937 - 0.502ms returns 0
T3340 000:946.276 JLINK_WriteReg(R7, 0x00000000)
T3340 000:946.645 - 0.551ms returns 0
T3340 000:946.990 JLINK_WriteReg(R8, 0x00000000)
T3340 000:947.371 - 0.536ms returns 0
T3340 000:947.733 JLINK_WriteReg(R9, 0x200005B4)
T3340 000:948.092 - 0.535ms returns 0
T3340 000:948.440 JLINK_WriteReg(R10, 0x00000000)
T3340 000:948.782 - 0.522ms returns 0
T3340 000:949.143 JLINK_WriteReg(R11, 0x00000000)
T3340 000:949.476 - 0.495ms returns 0
T3340 000:949.903 JLINK_WriteReg(R12, 0x00000000)
T3340 000:950.264 - 0.534ms returns 0
T3340 000:950.603 JLINK_WriteReg(R13 (SP), 0x20002000)
T3340 000:951.032 - 0.718ms returns 0
T3340 000:951.518 JLINK_WriteReg(R14, 0x20000001)
T3340 000:951.837 - 0.473ms returns 0
T3340 000:952.149 JLINK_WriteReg(R15 (PC), 0x20000288)
T3340 000:952.464 - 0.505ms returns 0
T3340 000:952.831 JLINK_WriteReg(XPSR, 0x01000000)
T3340 000:953.187 - 0.531ms returns 0
T3340 000:953.527 JLINK_WriteReg(MSP, 0x20002000)
T3340 000:953.890 - 0.535ms returns 0
T3340 000:954.240 JLINK_WriteReg(PSP, 0x20002000)
T3340 000:954.619 - 0.544ms returns 0
T3340 000:954.989 JLINK_WriteReg(CFBP, 0x00000000)
T3340 000:955.349 - 0.538ms returns 0
T3340 000:955.690 JLINK_SetBPEx(Addr = 0x20000000, Type = 0xFFFFFFF2)
T3340 000:956.038 - 0.529ms returns 0x00000005
T3340 000:956.397 JLINK_Go()
T3340 000:956.729   CPU_ReadMem(4 bytes @ 0xE0001000)
T3340 000:959.613 - 3.402ms
T3340 000:959.989 JLINK_IsHalted()
T3340 000:962.250   CPU_ReadMem(2 bytes @ 0x20000000)
T3340 000:963.241 - 3.417ms returns TRUE
T3340 000:963.587 JLINK_ReadReg(R15 (PC))
T3340 000:963.934 - 0.516ms returns 0x20000000
T3340 000:964.392 JLINK_ClrBPEx(BPHandle = 0x00000005)
T3340 000:964.733 - 0.493ms returns 0x00
T3340 000:965.038 JLINK_ReadReg(R0)
T3340 000:965.350 - 0.559ms returns 0x00000000
T3340 000:966.379 JLINK_HasError()
T3340 000:966.704 JLINK_WriteReg(R0, 0x0002A000)
T3340 000:967.014 - 0.475ms returns 0
T3340 000:967.599 JLINK_WriteReg(R1, 0x00001000)
T3340 000:968.066 - 0.636ms returns 0
T3340 000:968.399 JLINK_WriteReg(R2, 0x000000FF)
T3340 000:968.829 - 0.706ms returns 0
T3340 000:969.331 JLINK_WriteReg(R3, 0x00000000)
T3340 000:969.715 - 0.602ms returns 0
T3340 000:970.157 JLINK_WriteReg(R4, 0x00000000)
T3340 000:970.602 - 0.647ms returns 0
T3340 000:971.101 JLINK_WriteReg(R5, 0x00000000)
T3340 000:974.554 - 3.684ms returns 0
T3340 000:974.956 JLINK_WriteReg(R6, 0x00000000)
T3340 000:975.480 - 0.736ms returns 0
T3340 000:975.911 JLINK_WriteReg(R7, 0x00000000)
T3340 000:976.311 - 0.569ms returns 0
T3340 000:976.642 JLINK_WriteReg(R8, 0x00000000)
T3340 000:977.008 - 0.533ms returns 0
T3340 000:977.350 JLINK_WriteReg(R9, 0x200005B4)
T3340 000:977.736 - 0.539ms returns 0
T3340 000:978.063 JLINK_WriteReg(R10, 0x00000000)
T3340 000:978.379 - 0.493ms returns 0
T3340 000:978.778 JLINK_WriteReg(R11, 0x00000000)
T3340 000:979.174 - 0.579ms returns 0
T3340 000:979.559 JLINK_WriteReg(R12, 0x00000000)
T3340 000:979.965 - 0.587ms returns 0
T3340 000:980.331 JLINK_WriteReg(R13 (SP), 0x20002000)
T3340 000:980.709 - 0.571ms returns 0
T3340 000:981.173 JLINK_WriteReg(R14, 0x20000001)
T3340 000:981.529 - 0.538ms returns 0
T3340 000:981.882 JLINK_WriteReg(R15 (PC), 0x20000288)
T3340 000:982.248 - 0.523ms returns 0
T3340 000:982.569 JLINK_WriteReg(XPSR, 0x01000000)
T3340 000:982.944 - 0.650ms returns 0
T3340 000:983.406 JLINK_WriteReg(MSP, 0x20002000)
T3340 000:983.779 - 0.534ms returns 0
T3340 000:984.191 JLINK_WriteReg(PSP, 0x20002000)
T3340 000:984.657 - 0.733ms returns 0
T3340 000:985.190 JLINK_WriteReg(CFBP, 0x00000000)
T3340 000:985.521 - 0.502ms returns 0
T3340 000:985.894 JLINK_SetBPEx(Addr = 0x20000000, Type = 0xFFFFFFF2)
T3340 000:986.216 - 0.474ms returns 0x00000006
T3340 000:986.579 JLINK_Go()
T3340 000:986.950   CPU_ReadMem(4 bytes @ 0xE0001000)
T3340 000:989.859 - 3.458ms
T3340 000:990.200 JLINK_IsHalted()
T3340 000:992.624   CPU_ReadMem(2 bytes @ 0x20000000)
T3340 000:993.612 - 3.606ms returns TRUE
T3340 000:993.977 JLINK_ReadReg(R15 (PC))
T3340 000:994.361 - 0.543ms returns 0x20000000
T3340 000:994.688 JLINK_ClrBPEx(BPHandle = 0x00000006)
T3340 000:995.068 - 0.561ms returns 0x00
T3340 000:995.436 JLINK_ReadReg(R0)
T3340 000:995.851 - 0.597ms returns 0x00000000
T3340 000:996.823 JLINK_HasError()
T3340 000:997.145 JLINK_WriteReg(R0, 0x0002B000)
T3340 000:997.501 - 0.529ms returns 0
T3340 000:997.837 JLINK_WriteReg(R1, 0x00001000)
T3340 000:998.233 - 0.585ms returns 0
T3340 000:998.592 JLINK_WriteReg(R2, 0x000000FF)
T3340 000:998.961 - 0.530ms returns 0
T3340 000:999.322 JLINK_WriteReg(R3, 0x00000000)
T3340 000:999.667 - 0.534ms returns 0
T3340 001:000.024 JLINK_WriteReg(R4, 0x00000000)
T3340 001:000.393 - 0.530ms returns 0
T3340 001:000.875 JLINK_WriteReg(R5, 0x00000000)
T3340 001:001.330 - 0.621ms returns 0
T3340 001:001.686 JLINK_WriteReg(R6, 0x00000000)
T3340 001:002.085 - 0.575ms returns 0
T3340 001:002.463 JLINK_WriteReg(R7, 0x00000000)
T3340 001:002.820 - 0.553ms returns 0
T3340 001:003.194 JLINK_WriteReg(R8, 0x00000000)
T3340 001:003.553 - 0.542ms returns 0
T3340 001:003.909 JLINK_WriteReg(R9, 0x200005B4)
T3340 001:004.268 - 0.514ms returns 0
T3340 001:004.624 JLINK_WriteReg(R10, 0x00000000)
T3340 001:004.976 - 0.556ms returns 0
T3340 001:005.340 JLINK_WriteReg(R11, 0x00000000)
T3340 001:005.690 - 0.644ms returns 0
T3340 001:006.144 JLINK_WriteReg(R12, 0x00000000)
T3340 001:006.487 - 0.496ms returns 0
T3340 001:006.839 JLINK_WriteReg(R13 (SP), 0x20002000)
T3340 001:007.207 - 0.581ms returns 0
T3340 001:007.595 JLINK_WriteReg(R14, 0x20000001)
T3340 001:007.947 - 0.512ms returns 0
T3340 001:008.303 JLINK_WriteReg(R15 (PC), 0x20000288)
T3340 001:008.700 - 0.556ms returns 0
T3340 001:009.063 JLINK_WriteReg(XPSR, 0x01000000)
T3340 001:009.429 - 0.529ms returns 0
T3340 001:009.753 JLINK_WriteReg(MSP, 0x20002000)
T3340 001:010.134 - 0.533ms returns 0
T3340 001:010.442 JLINK_WriteReg(PSP, 0x20002000)
T3340 001:010.767 - 0.483ms returns 0
T3340 001:011.082 JLINK_WriteReg(CFBP, 0x00000000)
T3340 001:011.434 - 0.508ms returns 0
T3340 001:011.746 JLINK_SetBPEx(Addr = 0x20000000, Type = 0xFFFFFFF2)
T3340 001:012.055 - 0.474ms returns 0x00000007
T3340 001:012.379 JLINK_Go()
T3340 001:012.698   CPU_ReadMem(4 bytes @ 0xE0001000)
T3340 001:015.356 - 3.159ms
T3340 001:015.711 JLINK_IsHalted()
T3340 001:020.887   CPU_ReadMem(2 bytes @ 0x20000000)
T3340 001:021.858 - 6.368ms returns TRUE
T3340 001:022.378 JLINK_ReadReg(R15 (PC))
T3340 001:022.766 - 0.554ms returns 0x20000000
T3340 001:023.091 JLINK_ClrBPEx(BPHandle = 0x00000007)
T3340 001:023.486 - 0.568ms returns 0x00
T3340 001:023.852 JLINK_ReadReg(R0)
T3340 001:024.252 - 0.580ms returns 0x00000000
T3340 001:025.252 JLINK_HasError()
T3340 001:025.703 JLINK_WriteReg(R0, 0x0002C000)
T3340 001:026.090 - 0.583ms returns 0
T3340 001:026.459 JLINK_WriteReg(R1, 0x00001000)
T3340 001:026.839 - 0.545ms returns 0
T3340 001:027.184 JLINK_WriteReg(R2, 0x000000FF)
T3340 001:027.736 - 0.748ms returns 0
T3340 001:028.141 JLINK_WriteReg(R3, 0x00000000)
T3340 001:028.567 - 0.625ms returns 0
T3340 001:029.006 JLINK_WriteReg(R4, 0x00000000)
T3340 001:029.416 - 0.596ms returns 0
T3340 001:029.917 JLINK_WriteReg(R5, 0x00000000)
T3340 001:030.277 - 0.539ms returns 0
T3340 001:030.645 JLINK_WriteReg(R6, 0x00000000)
T3340 001:031.120 - 0.631ms returns 0
T3340 001:031.449 JLINK_WriteReg(R7, 0x00000000)
T3340 001:031.791 - 0.607ms returns 0
T3340 001:032.240 JLINK_WriteReg(R8, 0x00000000)
T3340 001:032.584 - 0.513ms returns 0
T3340 001:032.928 JLINK_WriteReg(R9, 0x200005B4)
T3340 001:033.465 - 0.714ms returns 0
T3340 001:033.841 JLINK_WriteReg(R10, 0x00000000)
T3340 001:034.286 - 0.643ms returns 0
T3340 001:034.693 JLINK_WriteReg(R11, 0x00000000)
T3340 001:035.113 - 0.612ms returns 0
T3340 001:035.562 JLINK_WriteReg(R12, 0x00000000)
T3340 001:035.964 - 0.567ms returns 0
T3340 001:036.332 JLINK_WriteReg(R13 (SP), 0x20002000)
T3340 001:036.671 - 0.525ms returns 0
T3340 001:037.034 JLINK_WriteReg(R14, 0x20000001)
T3340 001:037.391 - 0.533ms returns 0
T3340 001:037.750 JLINK_WriteReg(R15 (PC), 0x20000288)
T3340 001:038.109 - 0.531ms returns 0
T3340 001:038.469 JLINK_WriteReg(XPSR, 0x01000000)
T3340 001:038.813 - 0.542ms returns 0
T3340 001:039.176 JLINK_WriteReg(MSP, 0x20002000)
T3340 001:039.518 - 0.510ms returns 0
T3340 001:039.853 JLINK_WriteReg(PSP, 0x20002000)
T3340 001:040.218 - 0.535ms returns 0
T3340 001:040.557 JLINK_WriteReg(CFBP, 0x00000000)
T3340 001:040.934 - 0.547ms returns 0
T3340 001:041.264 JLINK_SetBPEx(Addr = 0x20000000, Type = 0xFFFFFFF2)
T3340 001:041.654 - 0.550ms returns 0x00000008
T3340 001:042.012 JLINK_Go()
T3340 001:042.351   CPU_ReadMem(4 bytes @ 0xE0001000)
T3340 001:045.120 - 3.271ms
T3340 001:045.449 JLINK_IsHalted()
T3340 001:047.999   CPU_ReadMem(2 bytes @ 0x20000000)
T3340 001:048.990 - 3.717ms returns TRUE
T3340 001:049.377 JLINK_ReadReg(R15 (PC))
T3340 001:049.740 - 0.534ms returns 0x20000000
T3340 001:050.109 JLINK_ClrBPEx(BPHandle = 0x00000008)
T3340 001:050.487 - 0.567ms returns 0x00
T3340 001:050.939 JLINK_ReadReg(R0)
T3340 001:051.371 - 0.727ms returns 0x00000000
T3340 001:052.444 JLINK_HasError()
T3340 001:052.798 JLINK_WriteReg(R0, 0x0002D000)
T3340 001:053.141 - 0.497ms returns 0
T3340 001:053.484 JLINK_WriteReg(R1, 0x00001000)
T3340 001:053.864 - 0.554ms returns 0
T3340 001:054.215 JLINK_WriteReg(R2, 0x000000FF)
T3340 001:054.564 - 0.516ms returns 0
T3340 001:054.905 JLINK_WriteReg(R3, 0x00000000)
T3340 001:055.265 - 0.558ms returns 0
T3340 001:055.699 JLINK_WriteReg(R4, 0x00000000)
T3340 001:056.119 - 0.603ms returns 0
T3340 001:056.506 JLINK_WriteReg(R5, 0x00000000)
T3340 001:056.872 - 0.546ms returns 0
T3340 001:057.290 JLINK_WriteReg(R6, 0x00000000)
T3340 001:057.759 - 0.699ms returns 0
T3340 001:058.207 JLINK_WriteReg(R7, 0x00000000)
T3340 001:058.561 - 0.562ms returns 0
T3340 001:058.940 JLINK_WriteReg(R8, 0x00000000)
T3340 001:059.279 - 0.524ms returns 0
T3340 001:059.647 JLINK_WriteReg(R9, 0x200005B4)
T3340 001:059.997 - 0.517ms returns 0
T3340 001:063.490 JLINK_WriteReg(R10, 0x00000000)
T3340 001:064.018 - 0.723ms returns 0
T3340 001:064.447 JLINK_WriteReg(R11, 0x00000000)
T3340 001:064.886 - 0.610ms returns 0
T3340 001:065.229 JLINK_WriteReg(R12, 0x00000000)
T3340 001:065.596 - 0.592ms returns 0
T3340 001:066.016 JLINK_WriteReg(R13 (SP), 0x20002000)
T3340 001:069.192 - 3.373ms returns 0
T3340 001:069.598 JLINK_WriteReg(R14, 0x20000001)
T3340 001:070.061 - 0.635ms returns 0
T3340 001:070.506 JLINK_WriteReg(R15 (PC), 0x20000288)
T3340 001:070.922 - 0.602ms returns 0
T3340 001:071.282 JLINK_WriteReg(XPSR, 0x01000000)
T3340 001:071.670 - 0.590ms returns 0
T3340 001:072.053 JLINK_WriteReg(MSP, 0x20002000)
T3340 001:072.400 - 0.516ms returns 0
T3340 001:072.809 JLINK_WriteReg(PSP, 0x20002000)
T3340 001:075.975 - 3.478ms returns 0
T3340 001:076.525 JLINK_WriteReg(CFBP, 0x00000000)
T3340 001:076.918 - 0.580ms returns 0
T3340 001:077.277 JLINK_SetBPEx(Addr = 0x20000000, Type = 0xFFFFFFF2)
T3340 001:077.792 - 0.680ms returns 0x00000009
T3340 001:078.130 JLINK_Go()
T3340 001:078.480   CPU_ReadMem(4 bytes @ 0xE0001000)
T3340 001:081.622 - 3.724ms
T3340 001:082.048 JLINK_IsHalted()
T3340 001:084.661   CPU_ReadMem(2 bytes @ 0x20000000)
T3340 001:087.380 - 5.546ms returns TRUE
T3340 001:087.933 JLINK_ReadReg(R15 (PC))
T3340 001:088.307 - 0.556ms returns 0x20000000
T3340 001:088.697 JLINK_ClrBPEx(BPHandle = 0x00000009)
T3340 001:096.062 - 7.577ms returns 0x00
T3340 001:096.474 JLINK_ReadReg(R0)
T3340 001:096.817 - 0.553ms returns 0x00000000
T3340 001:097.852 JLINK_HasError()
T3340 001:098.263 JLINK_WriteReg(R0, 0x0002E000)
T3340 001:098.623 - 0.551ms returns 0
T3340 001:098.997 JLINK_WriteReg(R1, 0x00001000)
T3340 001:099.383 - 0.584ms returns 0
T3340 001:099.772 JLINK_WriteReg(R2, 0x000000FF)
T3340 001:100.198 - 0.655ms returns 0
T3340 001:100.605 JLINK_WriteReg(R3, 0x00000000)
T3340 001:101.187 - 0.846ms returns 0
T3340 001:101.654 JLINK_WriteReg(R4, 0x00000000)
T3340 001:102.034 - 0.545ms returns 0
T3340 001:102.391 JLINK_WriteReg(R5, 0x00000000)
T3340 001:102.750 - 0.537ms returns 0
T3340 001:103.111 JLINK_WriteReg(R6, 0x00000000)
T3340 001:103.439 - 0.548ms returns 0
T3340 001:103.846 JLINK_WriteReg(R7, 0x00000000)
T3340 001:104.262 - 0.634ms returns 0
T3340 001:104.703 JLINK_WriteReg(R8, 0x00000000)
T3340 001:105.120 - 0.600ms returns 0
T3340 001:105.494 JLINK_WriteReg(R9, 0x200005B4)
T3340 001:105.873 - 0.551ms returns 0
T3340 001:106.277 JLINK_WriteReg(R10, 0x00000000)
T3340 001:106.689 - 0.616ms returns 0
T3340 001:107.091 JLINK_WriteReg(R11, 0x00000000)
T3340 001:107.440 - 0.514ms returns 0
T3340 001:107.795 JLINK_WriteReg(R12, 0x00000000)
T3340 001:108.142 - 0.564ms returns 0
T3340 001:108.574 JLINK_WriteReg(R13 (SP), 0x20002000)
T3340 001:108.909 - 0.527ms returns 0
T3340 001:109.334 JLINK_WriteReg(R14, 0x20000001)
T3340 001:109.754 - 0.585ms returns 0
T3340 001:110.086 JLINK_WriteReg(R15 (PC), 0x20000288)
T3340 001:110.467 - 0.550ms returns 0
T3340 001:110.863 JLINK_WriteReg(XPSR, 0x01000000)
T3340 001:111.266 - 0.642ms returns 0
T3340 001:111.702 JLINK_WriteReg(MSP, 0x20002000)
T3340 001:112.077 - 0.567ms returns 0
T3340 001:112.441 JLINK_WriteReg(PSP, 0x20002000)
T3340 001:112.825 - 0.576ms returns 0
T3340 001:113.281 JLINK_WriteReg(CFBP, 0x00000000)
T3340 001:113.635 - 0.519ms returns 0
T3340 001:114.026 JLINK_SetBPEx(Addr = 0x20000000, Type = 0xFFFFFFF2)
T3340 001:114.406 - 0.589ms returns 0x0000000A
T3340 001:114.884 JLINK_Go()
T3340 001:115.286   CPU_ReadMem(4 bytes @ 0xE0001000)
T3340 001:118.245 - 3.653ms
T3340 001:118.719 JLINK_IsHalted()
T3340 001:121.280   CPU_ReadMem(2 bytes @ 0x20000000)
T3340 001:124.759 - 6.248ms returns TRUE
T3340 001:125.268 JLINK_ReadReg(R15 (PC))
T3340 001:125.711 - 0.613ms returns 0x20000000
T3340 001:126.124 JLINK_ClrBPEx(BPHandle = 0x0000000A)
T3340 001:126.491 - 0.561ms returns 0x00
T3340 001:126.920 JLINK_ReadReg(R0)
T3340 001:127.334 - 0.583ms returns 0x00000000
T3340 001:128.335 JLINK_HasError()
T3340 001:128.785 JLINK_WriteReg(R0, 0x0002F000)
T3340 001:129.141 - 0.519ms returns 0
T3340 001:129.508 JLINK_WriteReg(R1, 0x00001000)
T3340 001:129.962 - 0.618ms returns 0
T3340 001:130.346 JLINK_WriteReg(R2, 0x000000FF)
T3340 001:130.814 - 0.748ms returns 0
T3340 001:131.291 JLINK_WriteReg(R3, 0x00000000)
T3340 001:131.738 - 0.735ms returns 0
T3340 001:132.293 JLINK_WriteReg(R4, 0x00000000)
T3340 001:132.778 - 0.715ms returns 0
T3340 001:133.242 JLINK_WriteReg(R5, 0x00000000)
T3340 001:133.901 - 0.999ms returns 0
T3340 001:134.508 JLINK_WriteReg(R6, 0x00000000)
T3340 001:134.914 - 0.633ms returns 0
T3340 001:135.312 JLINK_WriteReg(R7, 0x00000000)
T3340 001:135.646 - 0.511ms returns 0
T3340 001:136.012 JLINK_WriteReg(R8, 0x00000000)
T3340 001:136.405 - 0.577ms returns 0
T3340 001:136.758 JLINK_WriteReg(R9, 0x200005B4)
T3340 001:137.215 - 0.643ms returns 0
T3340 001:137.573 JLINK_WriteReg(R10, 0x00000000)
T3340 001:137.977 - 0.590ms returns 0
T3340 001:138.412 JLINK_WriteReg(R11, 0x00000000)
T3340 001:138.903 - 0.697ms returns 0
T3340 001:139.330 JLINK_WriteReg(R12, 0x00000000)
T3340 001:139.773 - 0.644ms returns 0
T3340 001:140.196 JLINK_WriteReg(R13 (SP), 0x20002000)
T3340 001:140.581 - 0.577ms returns 0
T3340 001:140.954 JLINK_WriteReg(R14, 0x20000001)
T3340 001:141.339 - 0.583ms returns 0
T3340 001:141.706 JLINK_WriteReg(R15 (PC), 0x20000288)
T3340 001:142.041 - 0.526ms returns 0
T3340 001:142.422 JLINK_WriteReg(XPSR, 0x01000000)
T3340 001:142.793 - 0.533ms returns 0
T3340 001:143.132 JLINK_WriteReg(MSP, 0x20002000)
T3340 001:143.523 - 0.554ms returns 0
T3340 001:143.874 JLINK_WriteReg(PSP, 0x20002000)
T3340 001:144.323 - 0.646ms returns 0
T3340 001:144.693 JLINK_WriteReg(CFBP, 0x00000000)
T3340 001:145.073 - 0.543ms returns 0
T3340 001:145.424 JLINK_SetBPEx(Addr = 0x20000000, Type = 0xFFFFFFF2)
T3340 001:145.795 - 0.567ms returns 0x0000000B
T3340 001:146.168 JLINK_Go()
T3340 001:146.571   CPU_ReadMem(4 bytes @ 0xE0001000)
T3340 001:149.753 - 3.789ms
T3340 001:150.136 JLINK_IsHalted()
T3340 001:152.532   CPU_ReadMem(2 bytes @ 0x20000000)
T3340 001:153.611 - 3.648ms returns TRUE
T3340 001:153.965 JLINK_ReadReg(R15 (PC))
T3340 001:154.315 - 0.528ms returns 0x20000000
T3340 001:154.677 JLINK_ClrBPEx(BPHandle = 0x0000000B)
T3340 001:155.105 - 0.596ms returns 0x00
T3340 001:155.475 JLINK_ReadReg(R0)
T3340 001:155.815 - 0.577ms returns 0x00000000
T3340 001:156.699 JLINK_HasError()
T3340 001:157.184 JLINK_WriteReg(R0, 0x00000001)
T3340 001:157.541 - 0.523ms returns 0
T3340 001:157.876 JLINK_WriteReg(R1, 0x00001000)
T3340 001:158.359 - 0.669ms returns 0
T3340 001:158.718 JLINK_WriteReg(R2, 0x000000FF)
T3340 001:159.220 - 0.676ms returns 0
T3340 001:159.570 JLINK_WriteReg(R3, 0x00000000)
T3340 001:159.924 - 0.575ms returns 0
T3340 001:160.368 JLINK_WriteReg(R4, 0x00000000)
T3340 001:160.759 - 0.562ms returns 0
T3340 001:161.188 JLINK_WriteReg(R5, 0x00000000)
T3340 001:161.636 - 0.624ms returns 0
T3340 001:162.057 JLINK_WriteReg(R6, 0x00000000)
T3340 001:162.504 - 0.678ms returns 0
T3340 001:162.912 JLINK_WriteReg(R7, 0x00000000)
T3340 001:163.264 - 0.519ms returns 0
T3340 001:163.618 JLINK_WriteReg(R8, 0x00000000)
T3340 001:163.956 - 0.563ms returns 0
T3340 001:164.381 JLINK_WriteReg(R9, 0x200005B4)
T3340 001:164.730 - 3.539ms returns 0
T3340 001:168.128 JLINK_WriteReg(R10, 0x00000000)
T3340 001:168.494 - 0.539ms returns 0
T3340 001:168.869 JLINK_WriteReg(R11, 0x00000000)
T3340 001:169.226 - 0.531ms returns 0
T3340 001:169.590 JLINK_WriteReg(R12, 0x00000000)
T3340 001:169.923 - 0.502ms returns 0
T3340 001:170.342 JLINK_WriteReg(R13 (SP), 0x20002000)
T3340 001:170.677 - 3.248ms returns 0
T3340 001:173.778 JLINK_WriteReg(R14, 0x20000001)
T3340 001:174.263 - 0.652ms returns 0
T3340 001:174.615 JLINK_WriteReg(R15 (PC), 0x20000060)
T3340 001:174.948 - 0.522ms returns 0
T3340 001:175.305 JLINK_WriteReg(XPSR, 0x01000000)
T3340 001:175.751 - 0.608ms returns 0
T3340 001:176.082 JLINK_WriteReg(MSP, 0x20002000)
T3340 001:176.409 - 0.519ms returns 0
T3340 001:176.768 JLINK_WriteReg(PSP, 0x20002000)
T3340 001:177.233 - 0.637ms returns 0
T3340 001:177.596 JLINK_WriteReg(CFBP, 0x00000000)
T3340 001:177.978 - 0.658ms returns 0
T3340 001:178.429 JLINK_SetBPEx(Addr = 0x20000000, Type = 0xFFFFFFF2)
T3340 001:178.913 - 0.710ms returns 0x0000000C
T3340 001:179.311 JLINK_Go()
T3340 001:179.773   CPU_ReadMem(4 bytes @ 0xE0001000)
T3340 001:182.867 - 3.773ms
T3340 001:183.280 JLINK_IsHalted()
T3340 001:185.663   CPU_ReadMem(2 bytes @ 0x20000000)
T3340 001:189.491 - 6.392ms returns TRUE
T3340 001:189.855 JLINK_ReadReg(R15 (PC))
T3340 001:190.194 - 0.503ms returns 0x20000000
T3340 001:190.534 JLINK_ClrBPEx(BPHandle = 0x0000000C)
T3340 001:190.954 - 0.601ms returns 0x00
T3340 001:191.336 JLINK_ReadReg(R0)
T3340 001:191.701 - 0.538ms returns 0x00000000
T3340 001:258.881 JLINK_WriteMem(0x20000000, 0x5B8 Bytes, ...)
T3340 001:259.377   Data:  00 BE 0A E0 0D 78 2D 06 68 40 08 24 40 00 00 D3 ...
T3340 001:260.066   CPU_WriteMem(1464 bytes @ 0x20000000)
T3340 001:265.245 - 6.663ms returns 0x5B8
T3340 001:265.789 JLINK_HasError()
T3340 001:266.199 JLINK_WriteReg(R0, 0x00000000)
T3340 001:266.665 - 0.634ms returns 0
T3340 001:267.057 JLINK_WriteReg(R1, 0x03D09000)
T3340 001:267.594 - 0.999ms returns 0
T3340 001:268.322 JLINK_WriteReg(R2, 0x00000002)
T3340 001:268.718 - 0.607ms returns 0
T3340 001:269.192 JLINK_WriteReg(R3, 0x00000000)
T3340 001:269.623 - 0.605ms returns 0
T3340 001:269.981 JLINK_WriteReg(R4, 0x00000000)
T3340 001:270.324 - 0.567ms returns 0
T3340 001:270.770 JLINK_WriteReg(R5, 0x00000000)
T3340 001:271.294 - 0.754ms returns 0
T3340 001:271.744 JLINK_WriteReg(R6, 0x00000000)
T3340 001:272.202 - 0.731ms returns 0
T3340 001:272.771 JLINK_WriteReg(R7, 0x00000000)
T3340 001:273.246 - 0.699ms returns 0
T3340 001:273.646 JLINK_WriteReg(R8, 0x00000000)
T3340 001:274.027 - 0.574ms returns 0
T3340 001:274.427 JLINK_WriteReg(R9, 0x200005B4)
T3340 001:274.817 - 0.569ms returns 0
T3340 001:275.164 JLINK_WriteReg(R10, 0x00000000)
T3340 001:275.555 - 0.586ms returns 0
T3340 001:275.963 JLINK_WriteReg(R11, 0x00000000)
T3340 001:276.334 - 0.562ms returns 0
T3340 001:276.683 JLINK_WriteReg(R12, 0x00000000)
T3340 001:276.987 - 0.477ms returns 0
T3340 001:277.347 JLINK_WriteReg(R13 (SP), 0x20002000)
T3340 001:277.687 - 0.494ms returns 0
T3340 001:277.998 JLINK_WriteReg(R14, 0x20000001)
T3340 001:278.298 - 0.455ms returns 0
T3340 001:278.630 JLINK_WriteReg(R15 (PC), 0x20000020)
T3340 001:278.929 - 0.458ms returns 0
T3340 001:279.246 JLINK_WriteReg(XPSR, 0x01000000)
T3340 001:279.568 - 0.476ms returns 0
T3340 001:279.876 JLINK_WriteReg(MSP, 0x20002000)
T3340 001:280.174 - 0.446ms returns 0
T3340 001:280.476 JLINK_WriteReg(PSP, 0x20002000)
T3340 001:280.783 - 0.454ms returns 0
T3340 001:281.092 JLINK_WriteReg(CFBP, 0x00000000)
T3340 001:281.396 - 0.454ms returns 0
T3340 001:281.710 JLINK_SetBPEx(Addr = 0x20000000, Type = 0xFFFFFFF2)
T3340 001:285.030   CPU_ReadMem(2 bytes @ 0x20000000)
T3340 001:285.986 - 4.461ms returns 0x0000000D
T3340 001:286.369 JLINK_Go()
T3340 001:286.684   CPU_WriteMem(2 bytes @ 0x20000000)
T3340 001:287.619   CPU_ReadMem(4 bytes @ 0xE0001000)
T3340 001:290.485 - 4.326ms
T3340 001:290.933 JLINK_IsHalted()
T3340 001:293.245   CPU_ReadMem(2 bytes @ 0x20000000)
T3340 001:294.234 - 3.465ms returns TRUE
T3340 001:294.588 JLINK_ReadReg(R15 (PC))
T3340 001:294.920 - 0.508ms returns 0x20000000
T3340 001:295.274 JLINK_ClrBPEx(BPHandle = 0x0000000D)
T3340 001:295.616 - 0.544ms returns 0x00
T3340 001:296.010 JLINK_ReadReg(R0)
T3340 001:296.377 - 0.553ms returns 0x00000000
T3340 001:297.185 JLINK_WriteMem(0x200005C8, 0x238 Bytes, ...)
T3340 001:297.579   Data:  E0 69 00 20 DD 63 02 00 E5 63 02 00 E7 63 02 00 ...
T3340 001:298.104   CPU_WriteMem(568 bytes @ 0x200005C8)
T3340 001:300.672 - 3.732ms returns 0x238
T3340 001:301.130 JLINK_WriteMem(0x20000800, 0x400 Bytes, ...)
T3340 001:301.485   Data:  C4 89 23 44 84 89 A3 42 28 BF 1B 1B 04 89 A3 42 ...
T3340 001:302.047   CPU_WriteMem(1024 bytes @ 0x20000800)
T3340 001:305.734 - 4.796ms returns 0x400
T3340 001:306.096 JLINK_WriteMem(0x20000C00, 0x400 Bytes, ...)
T3340 001:306.495   Data:  7A F9 03 B0 BD E8 F0 8F 40 46 21 46 F9 E7 00 1B ...
T3340 001:307.088   CPU_WriteMem(1024 bytes @ 0x20000C00)
T3340 001:310.989 - 5.370ms returns 0x400
T3340 001:311.665 JLINK_WriteMem(0x20001000, 0x400 Bytes, ...)
T3340 001:312.080   Data:  41 FA 38 B1 D8 F8 04 03 20 42 03 D0 38 46 04 F0 ...
T3340 001:312.785   CPU_WriteMem(1024 bytes @ 0x20001000)
T3340 001:316.484 - 5.002ms returns 0x400
T3340 001:316.854 JLINK_WriteMem(0x20001400, 0x1C8 Bytes, ...)
T3340 001:317.238   Data:  28 34 24 68 0C F1 04 0C CC F8 00 40 51 4C 2C 34 ...
T3340 001:318.035   CPU_WriteMem(456 bytes @ 0x20001400)
T3340 001:320.487 - 3.815ms returns 0x1C8
T3340 001:320.839 JLINK_HasError()
T3340 001:321.165 JLINK_WriteReg(R0, 0x00026000)
T3340 001:321.566 - 0.579ms returns 0
T3340 001:321.941 JLINK_WriteReg(R1, 0x00001000)
T3340 001:322.295 - 0.563ms returns 0
T3340 001:322.665 JLINK_WriteReg(R2, 0x200005C8)
T3340 001:323.025 - 0.531ms returns 0
T3340 001:323.380 JLINK_WriteReg(R3, 0x00000000)
T3340 001:323.690 - 0.473ms returns 0
T3340 001:324.010 JLINK_WriteReg(R4, 0x00000000)
T3340 001:324.320 - 0.503ms returns 0
T3340 001:324.675 JLINK_WriteReg(R5, 0x00000000)
T3340 001:324.998 - 0.479ms returns 0
T3340 001:325.344 JLINK_WriteReg(R6, 0x00000000)
T3340 001:325.647 - 0.450ms returns 0
T3340 001:325.948 JLINK_WriteReg(R7, 0x00000000)
T3340 001:326.270 - 0.490ms returns 0
T3340 001:326.593 JLINK_WriteReg(R8, 0x00000000)
T3340 001:326.897 - 0.466ms returns 0
T3340 001:327.220 JLINK_WriteReg(R9, 0x200005B4)
T3340 001:327.520 - 0.461ms returns 0
T3340 001:327.835 JLINK_WriteReg(R10, 0x00000000)
T3340 001:328.132 - 0.448ms returns 0
T3340 001:328.450 JLINK_WriteReg(R11, 0x00000000)
T3340 001:328.762 - 0.468ms returns 0
T3340 001:329.081 JLINK_WriteReg(R12, 0x00000000)
T3340 001:329.465 - 3.442ms returns 0
T3340 001:332.720 JLINK_WriteReg(R13 (SP), 0x20002000)
T3340 001:333.092 - 0.560ms returns 0
T3340 001:333.459 JLINK_WriteReg(R14, 0x20000001)
T3340 001:333.805 - 0.533ms returns 0
T3340 001:334.279 JLINK_WriteReg(R15 (PC), 0x20000154)
T3340 001:334.779 - 0.677ms returns 0
T3340 001:335.190 JLINK_WriteReg(XPSR, 0x01000000)
T3340 001:335.552 - 0.530ms returns 0
T3340 001:335.911 JLINK_WriteReg(MSP, 0x20002000)
T3340 001:336.287 - 0.586ms returns 0
T3340 001:336.686 JLINK_WriteReg(PSP, 0x20002000)
T3340 001:337.082 - 0.578ms returns 0
T3340 001:337.436 JLINK_WriteReg(CFBP, 0x00000000)
T3340 001:337.812 - 0.588ms returns 0
T3340 001:338.250 JLINK_SetBPEx(Addr = 0x20000000, Type = 0xFFFFFFF2)
T3340 001:338.672 - 0.613ms returns 0x0000000E
T3340 001:339.059 JLINK_Go()
T3340 001:339.438   CPU_ReadMem(4 bytes @ 0xE0001000)
T3340 001:342.233 - 3.360ms
T3340 001:342.601 JLINK_IsHalted()
T3340 001:343.356 - 0.973ms returns FALSE
T3340 001:343.790 JLINK_HasError()
T3340 001:379.339 JLINK_IsHalted()
T3340 001:380.109 - 0.947ms returns FALSE
T3340 001:380.484 JLINK_HasError()
T3340 001:382.341 JLINK_IsHalted()
T3340 001:383.108 - 0.999ms returns FALSE
T3340 001:383.529 JLINK_HasError()
T3340 001:385.350 JLINK_IsHalted()
T3340 001:386.234 - 1.109ms returns FALSE
T3340 001:386.645 JLINK_HasError()
T3340 001:388.336 JLINK_IsHalted()
T3340 001:389.133 - 0.977ms returns FALSE
T3340 001:389.495 JLINK_HasError()
T3340 001:391.340 JLINK_IsHalted()
T3340 001:395.003 - 3.889ms returns FALSE
T3340 001:395.500 JLINK_HasError()
T3340 001:397.329 JLINK_IsHalted()
T3340 001:398.250 - 1.209ms returns FALSE
T3340 001:398.721 JLINK_HasError()
T3340 001:400.328 JLINK_IsHalted()
T3340 001:401.241 - 1.149ms returns FALSE
T3340 001:401.711 JLINK_HasError()
T3340 001:403.329 JLINK_IsHalted()
T3340 001:404.125 - 1.018ms returns FALSE
T3340 001:404.566 JLINK_HasError()
T3340 001:406.322 JLINK_IsHalted()
T3340 001:407.107 - 0.965ms returns FALSE
T3340 001:407.480 JLINK_HasError()
T3340 001:409.322 JLINK_IsHalted()
T3340 001:410.255 - 1.169ms returns FALSE
T3340 001:410.706 JLINK_HasError()
T3340 001:412.328 JLINK_IsHalted()
T3340 001:414.702   CPU_ReadMem(2 bytes @ 0x20000000)
T3340 001:415.733 - 3.595ms returns TRUE
T3340 001:416.105 JLINK_ReadReg(R15 (PC))
T3340 001:416.469 - 0.531ms returns 0x20000000
T3340 001:416.806 JLINK_ClrBPEx(BPHandle = 0x0000000E)
T3340 001:417.136 - 0.494ms returns 0x00
T3340 001:417.676 JLINK_ReadReg(R0)
T3340 001:418.094 - 0.586ms returns 0x00000000
T3340 001:419.109 JLINK_WriteMem(0x200005C8, 0x238 Bytes, ...)
T3340 001:419.559   Data:  02 20 00 21 20 61 60 61 10 A0 A0 61 04 F1 78 00 ...
T3340 001:420.120   CPU_WriteMem(568 bytes @ 0x200005C8)
T3340 001:425.489 - 6.631ms returns 0x238
T3340 001:425.936 JLINK_WriteMem(0x20000800, 0x400 Bytes, ...)
T3340 001:426.287   Data:  FF F7 47 FA 80 46 89 46 32 46 3B 46 10 46 19 46 ...
T3340 001:426.916   CPU_WriteMem(1024 bytes @ 0x20000800)
T3340 001:430.766 - 5.068ms returns 0x400
T3340 001:431.253 JLINK_WriteMem(0x20000C00, 0x400 Bytes, ...)
T3340 001:431.610   Data:  00 9B 83 F0 08 03 53 EA 0A 03 0A D1 5C EA 01 02 ...
T3340 001:432.261   CPU_WriteMem(1024 bytes @ 0x20000C00)
T3340 001:436.003 - 5.019ms returns 0x400
T3340 001:436.537 JLINK_WriteMem(0x20001000, 0x400 Bytes, ...)
T3340 001:436.893   Data:  1E 46 90 46 C8 03 01 D5 30 27 00 E0 20 27 88 04 ...
T3340 001:437.482   CPU_WriteMem(1024 bytes @ 0x20001000)
T3340 001:441.237 - 4.955ms returns 0x400
T3340 001:441.790 JLINK_WriteMem(0x20001400, 0x1C8 Bytes, ...)
T3340 001:442.163   Data:  80 51 09 4C 25 40 15 60 C1 F8 80 41 D1 F8 84 41 ...
T3340 001:442.797   CPU_WriteMem(456 bytes @ 0x20001400)
T3340 001:444.993 - 3.431ms returns 0x1C8
T3340 001:445.405 JLINK_HasError()
T3340 001:445.822 JLINK_WriteReg(R0, 0x00027000)
T3340 001:446.301 - 0.653ms returns 0
T3340 001:446.672 JLINK_WriteReg(R1, 0x00001000)
T3340 001:447.016 - 0.630ms returns 0
T3340 001:447.492 JLINK_WriteReg(R2, 0x200005C8)
T3340 001:447.829 - 0.511ms returns 0
T3340 001:448.186 JLINK_WriteReg(R3, 0x00000000)
T3340 001:448.571 - 0.558ms returns 0
T3340 001:448.933 JLINK_WriteReg(R4, 0x00000000)
T3340 001:449.322 - 0.579ms returns 0
T3340 001:449.777 JLINK_WriteReg(R5, 0x00000000)
T3340 001:450.177 - 0.593ms returns 0
T3340 001:450.547 JLINK_WriteReg(R6, 0x00000000)
T3340 001:451.061 - 0.750ms returns 0
